
Note: No compatibility mode selected!


Circuit: * randles circuit model for li-ion battery (5-stage cauer warburg, ngspice-ready)

Doing analysis at TEMP = 27.000000 and TNOM = 27.000000


No. of Data Rows : 101
* randles circuit model for li-ion battery (5-stage cauer warburg, ngspice-ready)
AC Analysis  Thu Nov 20 03:51:29  2025
--------------------------------------------------------------------------------
Index   frequency       freq                            
--------------------------------------------------------------------------------
0	1.000000e-03	1.000000e-03,	0.000000e+00	
1	1.258925e-03	1.258925e-03,	0.000000e+00	
2	1.584893e-03	1.584893e-03,	0.000000e+00	
3	1.995262e-03	1.995262e-03,	0.000000e+00	
4	2.511886e-03	2.511886e-03,	0.000000e+00	
5	3.162278e-03	3.162278e-03,	0.000000e+00	
6	3.981072e-03	3.981072e-03,	0.000000e+00	
7	5.011872e-03	5.011872e-03,	0.000000e+00	
8	6.309573e-03	6.309573e-03,	0.000000e+00	
9	7.943282e-03	7.943282e-03,	0.000000e+00	
10	1.000000e-02	1.000000e-02,	0.000000e+00	
11	1.258925e-02	1.258925e-02,	0.000000e+00	
12	1.584893e-02	1.584893e-02,	0.000000e+00	
13	1.995262e-02	1.995262e-02,	0.000000e+00	
14	2.511886e-02	2.511886e-02,	0.000000e+00	
15	3.162278e-02	3.162278e-02,	0.000000e+00	
16	3.981072e-02	3.981072e-02,	0.000000e+00	
17	5.011872e-02	5.011872e-02,	0.000000e+00	
18	6.309573e-02	6.309573e-02,	0.000000e+00	
19	7.943282e-02	7.943282e-02,	0.000000e+00	
20	1.000000e-01	1.000000e-01,	0.000000e+00	
21	1.258925e-01	1.258925e-01,	0.000000e+00	
22	1.584893e-01	1.584893e-01,	0.000000e+00	
23	1.995262e-01	1.995262e-01,	0.000000e+00	
24	2.511886e-01	2.511886e-01,	0.000000e+00	
25	3.162278e-01	3.162278e-01,	0.000000e+00	
26	3.981072e-01	3.981072e-01,	0.000000e+00	
27	5.011872e-01	5.011872e-01,	0.000000e+00	
28	6.309573e-01	6.309573e-01,	0.000000e+00	
29	7.943282e-01	7.943282e-01,	0.000000e+00	
30	1.000000e+00	1.000000e+00,	0.000000e+00	
31	1.258925e+00	1.258925e+00,	0.000000e+00	
32	1.584893e+00	1.584893e+00,	0.000000e+00	
33	1.995262e+00	1.995262e+00,	0.000000e+00	
34	2.511886e+00	2.511886e+00,	0.000000e+00	
35	3.162278e+00	3.162278e+00,	0.000000e+00	
36	3.981072e+00	3.981072e+00,	0.000000e+00	
37	5.011872e+00	5.011872e+00,	0.000000e+00	
38	6.309573e+00	6.309573e+00,	0.000000e+00	
39	7.943282e+00	7.943282e+00,	0.000000e+00	
40	1.000000e+01	1.000000e+01,	0.000000e+00	
41	1.258925e+01	1.258925e+01,	0.000000e+00	
42	1.584893e+01	1.584893e+01,	0.000000e+00	
43	1.995262e+01	1.995262e+01,	0.000000e+00	
44	2.511886e+01	2.511886e+01,	0.000000e+00	
45	3.162278e+01	3.162278e+01,	0.000000e+00	
46	3.981072e+01	3.981072e+01,	0.000000e+00	
47	5.011872e+01	5.011872e+01,	0.000000e+00	
48	6.309573e+01	6.309573e+01,	0.000000e+00	
49	7.943282e+01	7.943282e+01,	0.000000e+00	
50	1.000000e+02	1.000000e+02,	0.000000e+00	
51	1.258925e+02	1.258925e+02,	0.000000e+00	
52	1.584893e+02	1.584893e+02,	0.000000e+00	
53	1.995262e+02	1.995262e+02,	0.000000e+00	
54	2.511886e+02	2.511886e+02,	0.000000e+00	

Index   frequency       freq                            
--------------------------------------------------------------------------------
55	3.162278e+02	3.162278e+02,	0.000000e+00	
56	3.981072e+02	3.981072e+02,	0.000000e+00	
57	5.011872e+02	5.011872e+02,	0.000000e+00	
58	6.309573e+02	6.309573e+02,	0.000000e+00	
59	7.943282e+02	7.943282e+02,	0.000000e+00	
60	1.000000e+03	1.000000e+03,	0.000000e+00	
61	1.258925e+03	1.258925e+03,	0.000000e+00	
62	1.584893e+03	1.584893e+03,	0.000000e+00	
63	1.995262e+03	1.995262e+03,	0.000000e+00	
64	2.511886e+03	2.511886e+03,	0.000000e+00	
65	3.162278e+03	3.162278e+03,	0.000000e+00	
66	3.981072e+03	3.981072e+03,	0.000000e+00	
67	5.011872e+03	5.011872e+03,	0.000000e+00	
68	6.309573e+03	6.309573e+03,	0.000000e+00	
69	7.943282e+03	7.943282e+03,	0.000000e+00	
70	1.000000e+04	1.000000e+04,	0.000000e+00	
71	1.258925e+04	1.258925e+04,	0.000000e+00	
72	1.584893e+04	1.584893e+04,	0.000000e+00	
73	1.995262e+04	1.995262e+04,	0.000000e+00	
74	2.511886e+04	2.511886e+04,	0.000000e+00	
75	3.162278e+04	3.162278e+04,	0.000000e+00	
76	3.981072e+04	3.981072e+04,	0.000000e+00	
77	5.011872e+04	5.011872e+04,	0.000000e+00	
78	6.309573e+04	6.309573e+04,	0.000000e+00	
79	7.943282e+04	7.943282e+04,	0.000000e+00	
80	1.000000e+05	1.000000e+05,	0.000000e+00	
81	1.258925e+05	1.258925e+05,	0.000000e+00	
82	1.584893e+05	1.584893e+05,	0.000000e+00	
83	1.995262e+05	1.995262e+05,	0.000000e+00	
84	2.511886e+05	2.511886e+05,	0.000000e+00	
85	3.162278e+05	3.162278e+05,	0.000000e+00	
86	3.981072e+05	3.981072e+05,	0.000000e+00	
87	5.011872e+05	5.011872e+05,	0.000000e+00	
88	6.309573e+05	6.309573e+05,	0.000000e+00	
89	7.943282e+05	7.943282e+05,	0.000000e+00	
90	1.000000e+06	1.000000e+06,	0.000000e+00	
91	1.258925e+06	1.258925e+06,	0.000000e+00	
92	1.584893e+06	1.584893e+06,	0.000000e+00	
93	1.995262e+06	1.995262e+06,	0.000000e+00	
94	2.511886e+06	2.511886e+06,	0.000000e+00	
95	3.162278e+06	3.162278e+06,	0.000000e+00	
96	3.981072e+06	3.981072e+06,	0.000000e+00	
97	5.011872e+06	5.011872e+06,	0.000000e+00	
98	6.309573e+06	6.309573e+06,	0.000000e+00	
99	7.943282e+06	7.943282e+06,	0.000000e+00	
100	1.000000e+07	1.000000e+07,	0.000000e+00	

* randles circuit model for li-ion battery (5-stage cauer warburg, ngspice-ready)
AC Analysis  Thu Nov 20 03:51:29  2025
--------------------------------------------------------------------------------
Index   frequency       z_mag           z_phase         
--------------------------------------------------------------------------------
0	1.000000e-03	7.000000e-02	-1.12200e-10	
1	1.258925e-03	7.000000e-02	-1.41251e-10	
2	1.584893e-03	7.000000e-02	-1.77825e-10	
3	1.995262e-03	7.000000e-02	-2.23868e-10	
4	2.511886e-03	7.000000e-02	-2.81833e-10	
5	3.162278e-03	7.000000e-02	-3.54807e-10	
6	3.981072e-03	7.000000e-02	-4.46675e-10	
7	5.011872e-03	7.000000e-02	-5.62331e-10	
8	6.309573e-03	7.000000e-02	-7.07932e-10	
9	7.943282e-03	7.000000e-02	-8.91234e-10	
10	1.000000e-02	7.000000e-02	-1.12200e-09	
11	1.258925e-02	7.000000e-02	-1.41251e-09	
12	1.584893e-02	7.000000e-02	-1.77825e-09	
13	1.995262e-02	7.000000e-02	-2.23868e-09	
14	2.511886e-02	7.000000e-02	-2.81833e-09	
15	3.162278e-02	7.000000e-02	-3.54807e-09	
16	3.981072e-02	7.000000e-02	-4.46675e-09	
17	5.011872e-02	7.000000e-02	-5.62331e-09	
18	6.309573e-02	7.000000e-02	-7.07932e-09	
19	7.943282e-02	7.000000e-02	-8.91234e-09	
20	1.000000e-01	7.000000e-02	-1.12200e-08	
21	1.258925e-01	7.000000e-02	-1.41251e-08	
22	1.584893e-01	7.000000e-02	-1.77825e-08	
23	1.995262e-01	7.000000e-02	-2.23868e-08	
24	2.511886e-01	7.000000e-02	-2.81833e-08	
25	3.162278e-01	7.000000e-02	-3.54807e-08	
26	3.981072e-01	7.000000e-02	-4.46675e-08	
27	5.011872e-01	7.000000e-02	-5.62331e-08	
28	6.309573e-01	7.000000e-02	-7.07932e-08	
29	7.943282e-01	7.000000e-02	-8.91234e-08	
30	1.000000e+00	7.000000e-02	-1.12200e-07	
31	1.258925e+00	7.000000e-02	-1.41251e-07	
32	1.584893e+00	7.000000e-02	-1.77825e-07	
33	1.995262e+00	7.000000e-02	-2.23868e-07	
34	2.511886e+00	7.000000e-02	-2.81833e-07	
35	3.162278e+00	7.000000e-02	-3.54807e-07	
36	3.981072e+00	7.000000e-02	-4.46675e-07	
37	5.011872e+00	7.000000e-02	-5.62331e-07	
38	6.309573e+00	7.000000e-02	-7.07932e-07	
39	7.943282e+00	7.000000e-02	-8.91234e-07	
40	1.000000e+01	7.000000e-02	-1.12200e-06	
41	1.258925e+01	7.000000e-02	-1.41251e-06	
42	1.584893e+01	7.000000e-02	-1.77825e-06	
43	1.995262e+01	7.000000e-02	-2.23868e-06	
44	2.511886e+01	7.000000e-02	-2.81833e-06	
45	3.162278e+01	7.000000e-02	-3.54807e-06	
46	3.981072e+01	7.000000e-02	-4.46675e-06	
47	5.011872e+01	7.000000e-02	-5.62331e-06	
48	6.309573e+01	7.000000e-02	-7.07932e-06	
49	7.943282e+01	7.000000e-02	-8.91234e-06	
50	1.000000e+02	7.000000e-02	-1.12200e-05	
51	1.258925e+02	7.000000e-02	-1.41251e-05	
52	1.584893e+02	7.000000e-02	-1.77825e-05	
53	1.995262e+02	7.000000e-02	-2.23868e-05	
54	2.511886e+02	7.000000e-02	-2.81833e-05	

Index   frequency       z_mag           z_phase         
--------------------------------------------------------------------------------
55	3.162278e+02	7.000000e-02	-3.54807e-05	
56	3.981072e+02	7.000000e-02	-4.46675e-05	
57	5.011872e+02	7.000000e-02	-5.62331e-05	
58	6.309573e+02	7.000000e-02	-7.07932e-05	
59	7.943282e+02	7.000000e-02	-8.91234e-05	
60	1.000000e+03	7.000000e-02	-1.12200e-04	
61	1.258925e+03	7.000000e-02	-1.41251e-04	
62	1.584893e+03	7.000000e-02	-1.77825e-04	
63	1.995262e+03	7.000000e-02	-2.23868e-04	
64	2.511886e+03	6.999999e-02	-2.81833e-04	
65	3.162278e+03	6.999999e-02	-3.54807e-04	
66	3.981072e+03	6.999999e-02	-4.46675e-04	
67	5.011872e+03	6.999998e-02	-5.62331e-04	
68	6.309573e+03	6.999997e-02	-7.07932e-04	
69	7.943282e+03	6.999995e-02	-8.91234e-04	
70	1.000000e+04	6.999992e-02	-1.12200e-03	
71	1.258925e+04	6.999987e-02	-1.41251e-03	
72	1.584893e+04	6.999980e-02	-1.77824e-03	
73	1.995262e+04	6.999968e-02	-2.23867e-03	
74	2.511886e+04	6.999950e-02	-2.81831e-03	
75	3.162278e+04	6.999921e-02	-3.54803e-03	
76	3.981072e+04	6.999874e-02	-4.46667e-03	
77	5.011872e+04	6.999801e-02	-5.62315e-03	
78	6.309573e+04	6.999684e-02	-7.07901e-03	
79	7.943282e+04	6.999500e-02	-8.91171e-03	
80	1.000000e+05	6.999207e-02	-1.12187e-02	
81	1.258925e+05	6.998743e-02	-1.41226e-02	
82	1.584893e+05	6.998009e-02	-1.77774e-02	
83	1.995262e+05	6.996845e-02	-2.23768e-02	
84	2.511886e+05	6.995002e-02	-2.81633e-02	
85	3.162278e+05	6.992084e-02	-3.54408e-02	
86	3.981072e+05	6.987468e-02	-4.45881e-02	
87	5.011872e+05	6.980173e-02	-5.60748e-02	
88	6.309573e+05	6.968663e-02	-7.04782e-02	
89	7.943282e+05	6.950552e-02	-8.84970e-02	
90	1.000000e+06	6.922168e-02	-1.10957e-01	
91	1.258925e+06	6.877970e-02	-1.38792e-01	
92	1.584893e+06	6.809827e-02	-1.72984e-01	
93	1.995262e+06	6.706345e-02	-2.14409e-01	
94	2.511886e+06	6.552712e-02	-2.63554e-01	
95	3.162278e+06	6.331993e-02	-3.20047e-01	
96	3.981072e+06	6.029055e-02	-3.82043e-01	
97	5.011872e+06	5.637508e-02	-4.45676e-01	
98	6.309573e+06	5.167303e-02	-5.04982e-01	
99	7.943282e+06	4.647575e-02	-5.52720e-01	
100	1.000000e+07	4.120439e-02	-5.82030e-01	
Note: v_source: has no value, DC 0 assumed
Note: No ".plot", ".print", or ".fourier" lines; no simulations run
